VERSION
9

COMMSETTINGS
0
COM5
COM3
115200
2
0
4
0
0

COMMDISPLAY
0

VERSATAP
0

CHANNELALIAS
Inverter(Dock)
MELACS7

SEND
0
1 2000 4 1
01 01 01 0F 11 8C
0
5
CHECKSUM 

SEND
1
0101083400107E
01 01 02 01 01 79 AC
0
5
CHECKSUM 

SEND
2
01 01 08 98 00 10 BE 49
01 01 02 40 00 88 3C
0
5
CHECKSUM 

SEND
3
01 02 03 E8 00 06 78 78
01 02 01 00 A1 88
0
5
CHECKSUM 

SEND
4
01 03 0F A0 00 1E C6 F4
01 03 3C FF F1 FF F3 FF F0 FF F3 FF E6 FF EA 06 81 05 AA 06 4F 05 7E 06 87 05 AF 00 04 00 1C 00 16 00 9C 00 22 00 F2 00 0D 00 5C 00 0C 00 55 00 08 00 38 06 97 4D D4 06 98 4D DF 06 98 4D DF 86 DB
0
5
CHECKSUM 

SEND
5
01 03 10 04 00 04 01 08
01 03 08 02 00 01 18 07 E2 02 0F D5 FB
0
5
CHECKSUM 

SEND
6
01 03 10 68 00 03 80 D7
01 03 06 00 00 0E 28 00 04 A2 56
0
5
CHECKSUM 

SEND
7
01 03 10 CC 00 06 01 37
01 03 0C 01 F4 2A AA 55 54 00 00 00 00 00 00 0F AB
0
5
CHECKSUM 

SEND
8
01 03 11 30 00 02 C1 38
01 03 04 C0 00 40 00 F7 F3
0
5
CHECKSUM 

SEND
9
01 03 11 94 00 05 C1 19
01 03 0A 00 00 00 00 0A B4 00 00 13 88 99 50
0
5
CHECKSUM 

SEND
10
01 04 0B B8 00 50 72 37
01 04 A0 07 FB 00 00 01 00 00 0E 08 10 00 00 00 12 00 01 07 E9 00 00 00 5C 00 07 08 0E 00 00 00 13 00 00 07 DF 00 00 00 6A 00 07 08 1B 00 00 00 13 00 00 07 F4 00 00 00 B1 00 07 07 F3 00 00 00 B9 00 07 07 F8 00 00 00 B9 00 07 01 6C 00 23 00 F8 00 2F 01 85 00 02 00 21 00 05 01 6B 00 0B 01 0F 00 23 01 AC FF FC 00 0D 00 04 01 63 00 3B 01 0F 00 46 01 7F 00 05 00 14 00 05 00 02 00 08 00 22 00 08 00 0E 00 33 00 33 00 33 0F 6F 7F FF 00 00 01 BE 0F 66 7F FF 00 00 01 A0 0F 65 7F FF 00 00 01 A0 F1 EB
0
5
CHECKSUM 

SEND
11
01 05 08 36 FF 00 6E 54
01 05 08 36 FF 00 6E 54
0
5
CHECKSUM 

SEND
12
01 0F 07 D0 00 04 01 0F BE F7
01 0F 07 D0 00 04 54 85
0
5
CHECKSUM 

SEND
13
01 06 10 6A 00 01 6C D6
01 06 10 6A 00 01 6C D6
0
5
CHECKSUM 

SEND
14
01 10 10 CC 00 06 0C 02 8A 5B FA 37 6D FB A5 6E 97 3B E7 72 42
01 10 10 CC 00 06 84 F4
0
5
CHECKSUM 

SEND
15
Noise
FF FD FF 00 00 F0 00 80 F8 7F 00 20 10 84 FE 00 00 00 00 00 00 00 00 02 00 00 00 00 00 00 00 00 00 00 00 01 06 00 00 00 00 00 00 00 00 00 00 00 00 40 00 00 80 02 00 00 01 00 00 00 00 00 00 00 00 00 00 00 00 00 20 20 00 00 00 80 00 00 00 00 00 00 00 00 00 00 00 00 00 00 04 00 00 00 00 00 00 00 00 00 00 0C 01 C4 00 C6 10 00 30 00 00 00 00 00 00 00 00 02 00 00 00 00 00 00 00 00 00 00 00 00 00 00 00 02 00 00 00 00 00 00 00 00 00 00 00 00 00 00 00 00 00 00 00 00 00 00 00 00 00 00 04 00 00
0
.1
CHECKSUM 

RECEIVE
0
2000
01 01 07 D0 00 04 3D 44
0
0
COMMENT 
0
1
0
1
CHECKSUM 
0

RECEIVE
1
2100
01 01 08 34 00 10 7E 68
1
0
COMMENT 
0
1
0
1
CHECKSUM 
0

RECEIVE
2
2200
01 01 08 98 00 10 BE 49
2
0
COMMENT 
0
1
0
1
CHECKSUM 
0

RECEIVE
3
1000
01 02 03 E8 00 06 78 78
3
0
COMMENT 
0
1
0
1
CHECKSUM 
0

RECEIVE
4
4000
01 03 0F A0 00 1E C6 F4
4
0
COMMENT 
0
1
0
1
CHECKSUM 
0

RECEIVE
5
4100
01 03 10 04 00 04 01 08
5
0
COMMENT 
0
1
0
1
CHECKSUM 
0

RECEIVE
6
4200
01 03 10 68 00 03 80 D7
6
0
COMMENT 
0
1
0
1
CHECKSUM 
0

RECEIVE
7
4300
01 03 10 CC 00 06 01 37
7
0
COMMENT 
0
1
0
1
CHECKSUM 
0

RECEIVE
8
4400
01 03 11 30 00 02 C1 38
8
0
COMMENT 
0
1
0
1
CHECKSUM 
0

RECEIVE
9
4500
01 03 11 94 00 05 C1 19
9
0
COMMENT 
0
1
0
1
CHECKSUM 
0

RECEIVE
10
3000
01 04 0B B8 00 50 72 37
10
0
COMMENT 
0
1
0
1
CHECKSUM 
0

RECEIVE
11
2102 CAlIB Write
01 05 08 36 FF 00 6E 54
11
0
COMMENT 
0
1
0
1
CHECKSUM 
0

RECEIVE
12
2000 MULTI COIL WRITE
01 0F 07 D0 00 04 01 0F BE F7
12
0
COMMENT 
0
1
0
1
CHECKSUM 
0

RECEIVE
13
4202 Write 
01 06 10 6A 00 01 6C D6
13
0
COMMENT 
0
1
0
1
CHECKSUM 
0

RECEIVE
14
4300 Write
01 10 10 CC 00 06 0C 02 8A 5B FA 37 6D FB A5 6E 97 3B E7 72 42
14
0
COMMENT 
0
1
0
1
CHECKSUM 
0

RECEIVE
15
Frame Detector
&& 02 ## ## ## ## ## ## ## ## ## ## ## ## ## ## ## ## ## ## ## ## ## ## ## ## ## ## ## ## ?? ?? ?? ??
-1
0
COMMENT %_LDetected Modbus Frame = %_H(3,-1)%_LSlaveID=%_H(3,1)%_LFunctionCode=%_H(4,1)%_LAddr/Data=%_H(5,-3)%_LCRC=%_H(-2,-1)
1
1
0
0
CHECKSUM (3,-3) CRC-MODBUS L # MODBUS RTU checksum. Lower Byte first ('Little Endian')
0

