VERSION
9

COMMSETTINGS
0
COM7
COM3
115200
2
0
4
0
0

COMMDISPLAY
0

VERSATAP
0

CHANNELALIAS



SEND
0
Hw test
01 03 10 04 00 04 01 08
0
.1
CHECKSUM 

SEND
1
RELAY_INV_PHASE ON
01 05 07 D0 FF 00 8C B7
0
5
CHECKSUM 

SEND
2
RELAY_INV_NEUTRAL
01 05 07 D0 00 01 0C 87
0
5
CHECKSUM 

SEND
3
RELAY_INV_PHASE - OFF
01 05 07 D0 00 00 CD 47
0
5
CHECKSUM 

SEND
4
Multicoil - ON
01 0F 07 D0 00 04 01 0F BE F7
0
5
CHECKSUM 

SEND
5
CALIB
01 05 08 36 FF 00 6E 54
0
5
CHECKSUM 

SEND
6
MultiCOIL-OFF
01 0F 07 D0 00 04 01 00 FE F3
0
5
CHECKSUM 

SEND
7
Standalone 1 - Phase mode
01 06 10 6A 00 00 AD 16
0
5
CHECKSUM 

SEND
8
Standalone 3-Phase mode
01 06 10 6A 00 01 6C D6
0
5
CHECKSUM 

SEND
9
Test-mode
01 06 10 6A 00 04 AC D5
0
5
CHECKSUM 

SEND
10
Read input register
01 03 23 F0 00 7D 8E 5C
0
5
CHECKSUM 

SEND
11
MODE Readings
01 03 10 68 00 03 80 D7
0
5
CHECKSUM 

SEND
12
ADC Reading
01 04 0B B8 00 50 72 37
0
5
CHECKSUM 

SEND
13
DDS READINGS
01 03 10 CC 00 06 01 37
0
5
CHECKSUM 

SEND
14
ITRIP Readings
01 03 11 30 00 02 C1 38
0
5
CHECKSUM 

SEND
15
DPLL Readings
01 03 11 94 00 05 C1 19
0
5
CHECKSUM 

SEND
16
Temp Reading RAW
01 04 0B FC 00 01 F3 DE
0
5
CHECKSUM 

SEND
17
Temp Reading Celcius
01 04 0B FD 00 01 A2 1E
0
5
CHECKSUM 

SEND
18
SM Reading
01 03 23 28 00 05 0E 45
0
5
CHECKSUM 

SEND
19
CALIB READING.
01 03 0F A0 00 1E C6 F4
0
5
CHECKSUM 

SEND
20
Read OCP detector
01 02 03 E8 00 06 78 78
0
5
CHECKSUM 

SEND
21
Read RLY Output
01 01 07 D0 00 04 3D 44
0
5
CHECKSUM 

SEND
22
READ RST Sources
01 01 08 98 00 0F FF 81
0
5
CHECKSUM 

SEND
23
ad
64 61 73 68 6E 79 61 6D
1
1
CHECKSUM 

SEND
24

0B 10 00 12 00 02 04 0B 0A C1 02 A0 D5
0
5
CHECKSUM 

SEND
25

0B 0F 00 1B 00 09 02 4D 01 6C A7
0
5
CHECKSUM 

SEND
26
Write Multi Register
01 10 10 CC 00 06 0C 02 58 3D C8 40 17 80 00 E0 41 FB A5 BE 4F
0
5
CHECKSUM 

SEND
27
Frequence
01 06 10 CC 02 58 4D AF
0
5
CHECKSUM 

SEND
28

01 10 10 CC 00 06 0C 02 58 3D C8 40 18 80 00 80 00 80 00 ED D0
0
5
CHECKSUM 

SEND
29
01 10 10 CC 00 06 0C 02 8A 5B F6 37 6B FB A5 6E 97 3B E7 41 42
01 10 10 CC 00 06 0C 02 8A 5B FA 37 6D FB A5 6E 97 3B E7 72 42
0
5
CHECKSUM 

SEND
30
Read System Status
01 01 08 34 00 10 7E 68
0
5
CHECKSUM 

SEND
31
01 05 07 D0 FF 00 8C B7
01 05 07 D0 00 01 0C 87
0
5
CHECKSUM 

SEND
32

01 02 03 E8 00 06 78 78
0
5
CHECKSUM 

SEND
33
00
00
0
5
CHECKSUM 

RECEIVE
0
Generic Frame detector
&& 02 ## ## ## ## ## ## ## ## ## ## ## ## ## ## ## ## ## ## ## ## ## ## ## ## ## ## ## ## ?? ?? ?? ??
-1
0
COMMENT %_LDetected Modbus Frame = %_H(3,-1)%_LSlaveID=%_H(3,1)%_LFunctionCode=%_H(4,1)%_LAddr/Data=%_H(5,-3)%_LCRC=%_H(-2,-1)
1
1
0
1
CHECKSUM (3,-3) CRC-MODBUS L # MODBUS RTU checksum. Lower Byte first ('Little Endian')
0

RECEIVE
1
Input Register Answer (2byte)
?? 03 FA ?? ?? ?? ?? ?? ?? ?? ?? ?? ?? ?? ?? ?? ?? ?? ?? ?? ?? ?? ?? ?? ?? ?? ?? ?? ?? ?? ?? ?? ?? ?? ?? ?? ?? ?? ?? ?? ?? ?? ?? ?? ?? ?? ?? ?? ?? ?? ?? ?? ?? ?? ?? ?? ?? ?? ?? ?? ?? ?? ?? ?? ?? ?? ?? ?? ?? ?? ?? ?? ?? ?? ?? ?? ?? ?? ?? ?? ?? ?? ?? ?? ?? ?? ?? ?? ?? ?? ?? ?? ?? ?? ?? ?? ?? ?? ?? ?? ?? ?? ?? ?? ?? ?? ?? ?? ?? ?? ?? ?? ?? ?? ?? ?? ?? ?? ?? ?? ?? ?? ?? ?? ?? ?? ?? ?? ?? ?? ?? ?? ?? ?? ?? ?? ?? ?? ?? ?? ?? ?? ?? ?? ?? ?? ?? ?? ?? ?? ?? ?? ?? ?? ?? ?? ?? ?? ?? ?? ?? ?? ?? ?? ?? ?? ?? ?? ?? ?? ?? ?? ?? ?? ?? ?? ?? ?? ?? ?? ?? ?? ?? ?? ?? ?? ?? ?? ?? ?? ?? ?? ?? ?? ?? ?? ?? ?? ?? ?? ?? ?? ?? ?? ?? ?? ?? ?? ?? ?? ?? ?? ?? ?? ?? ?? ?? ?? ?? ?? ?? ?? ?? ?? ?? ?? ?? ?? ?? ?? ?? ?? ?? ?? ?? ?? ?? ?? ?? ?? ?? ?? ?? ?? ?? ?? ?? ?? 00 00
-1
0
COMMENT %_L Input Register Answer: Slave=%_D(1,1) ValueHex=%_H(4,1)%_H(5,1)
1
1
0
1
CHECKSUM CRC-MODBUS L # MODBUS RTU checksum. Lower Byte first ('Little Endian')
0

RECEIVE
2
DDS Reading
01 03 0C ?? ?? ?? ?? ?? ?? ?? ?? ?? ?? ?? ?? ?? ??
-1
0
COMMENT %_LDetected Modbus Frame = %_H(3,-1)%_L DDS Reading %_L Waves_Freq: %_H(4,2) %_L SHIFT_PHASE_CH2: %_H(6,2)%_L SHIFT_PHASE_CH3: %_H(8,2)%_L Gain_CH1 : %_H(10,2)%_L GAIN_CH2: %_H(12,2)%_L GAIN_CH3: %_H(14,2)
1
1
0
1
CHECKSUM 
0

RECEIVE
3
TempReading
01 04 02 ?? ?? ?? ??
-1
0
COMMENT %_LDetected Modbus Frame = %_H(3,-1)%_L Temperature: %_H(4,2)
0
1
0
0
CHECKSUM 
0

RECEIVE
4
01 03 10 04 00 04 01 08
01 03 10 04 00 04 01 08
-1
0
COMMENT %_L Transmitted data: %_H(1,-1) %_L
0
1
0
0
CHECKSUM 
0

RECEIVE
5
01 03 08 02 00 01 18 07 E2 02 0F D5 FB
01 03 08 02 00 01 18 07 E2 02 0F D5 FB
-1
0
COMMENT %_L Received data: %_H(1,-1) %_L
0
1
0
0
CHECKSUM 
0

RECEIVE
6

01 06
-1
0
COMMENT *******************************************************************
1
1
0
1
CHECKSUM 
0

RECEIVE
7

01 10
-1
0
COMMENT ************************************************************
1
1
0
1
CHECKSUM 
0

